freq_GHz,S11_Re_true,S11_Re_decoded,S11_Im_true,S11_Im_decoded,S21_Re_true,S21_Re_decoded,S21_Im_true,S21_Im_decoded,S22_Re_true,S22_Re_decoded,S22_Im_true,S22_Im_decoded
0.04,0.91785926,0.9072467,-0.000274643,-0.00027063274,0.059415407,0.058889605,-5.4391396e-05,-5.254736e-05,0.9401586,0.9406023,-0.0014710996,-0.00149841
0.14013824884792628,0.91785884,0.90724623,-0.00096125086,-0.0009472146,0.059414938,0.058889166,-0.00019036827,-0.0001839143,0.94014573,0.9405889,-0.005148806,-0.0052443906
0.24027649769585255,0.91785794,0.90724534,-0.0016478589,-0.0016237962,0.059413906,0.058888216,-0.00032633962,-0.00031527638,0.9401185,0.94056034,-0.008826382,-0.008990234
0.3404147465437788,0.91785645,0.9072438,-0.0023344674,-0.0023003775,0.059412338,0.058886778,-0.0004623017,-0.00044663035,0.940077,0.940517,-0.012503724,-0.012735832
0.44055299539170506,0.91785467,0.9072419,-0.0030210759,-0.0029769577,0.059410244,0.058884848,-0.00059825036,-0.00057797274,0.9400212,0.9404586,-0.016180743,-0.01648109
0.5406912442396314,0.9178523,0.90723944,-0.0037076857,-0.003653538,0.0594076,0.058882408,-0.00073418184,-0.0007093,0.9399511,0.9403853,-0.019857338,-0.020225912
0.6408294930875577,0.9178495,0.90723646,-0.0043942975,-0.004330118,0.05940442,0.058879487,-0.0008700925,-0.00084060885,0.9398667,0.940297,-0.023533422,-0.023970192
0.7409677419354839,0.91784614,0.9072329,-0.00508091,-0.0050066966,0.059400707,0.058876064,-0.0010059779,-0.0009718959,0.939768,0.94019383,-0.027208893,-0.027713828
0.8411059907834102,0.9178424,0.90722895,-0.0057675242,-0.005683275,0.059396457,0.058872137,-0.0011418348,-0.0011031578,0.93965507,0.9400757,-0.030883648,-0.03145672
0.9412442396313365,0.9178381,0.9072244,-0.00645414,-0.0063598515,0.05939166,0.058867723,-0.0012776584,-0.0012343909,0.9395278,0.9399426,-0.034557607,-0.03519878
1.0413824884792628,0.9178334,0.90721947,-0.007140758,-0.007036427,0.059386335,0.058862813,-0.0014134464,-0.0013655924,0.9393863,0.9397946,-0.03823068,-0.038939893
1.141520737327189,0.91782814,0.907214,-0.007827378,-0.007713002,0.05938047,0.05885742,-0.0015491934,-0.0014967585,0.9392306,0.93963176,-0.041902762,-0.042679988
1.2416589861751153,0.9178224,0.90720797,-0.008514,-0.0083895745,0.05937407,0.058851518,-0.0016848966,-0.0016278862,0.9390606,0.93945396,-0.045573737,-0.046418905
1.3417972350230416,0.9178163,0.9072014,-0.009200628,-0.00906615,0.059367135,0.05884512,-0.0018205517,-0.001758972,0.9388765,0.9392613,-0.049243554,-0.050156623
1.4419354838709677,0.9178096,0.90719444,-0.009887255,-0.009742716,0.059359666,0.05883825,-0.0019561546,-0.0018900121,0.9386781,0.9390538,-0.052912105,-0.053892996
1.542073732718894,0.91780245,0.9071869,-0.01057389,-0.010419291,0.05935167,0.05883088,-0.002091703,-0.0020210047,0.93846554,0.9388314,-0.05657929,-0.05762796
1.6422119815668204,0.9177949,0.90717894,-0.011260518,-0.01109585,0.059343137,0.05882301,-0.0022271918,-0.0021519447,0.9382388,0.9385942,-0.060245015,-0.061361365
1.7423502304147467,0.9177867,0.90717036,-0.011947156,-0.011772415,0.05933407,0.058814667,-0.0023626173,-0.00228283,0.93799794,0.9383422,-0.06390917,-0.06509315
1.842488479262673,0.91777813,0.9071613,-0.012633802,-0.012448983,0.059324495,0.05880583,-0.0024979764,-0.002413657,0.9377429,0.93807536,-0.06757172,-0.06882321
1.942626728110599,0.9177691,0.90715176,-0.013320442,-0.013125537,0.059314366,0.058796495,-0.0026332662,-0.0025444236,0.9374738,0.9377938,-0.071232535,-0.07255147
2.0427649769585257,0.9177595,0.9071417,-0.014007093,-0.013802096,0.05930371,0.058786675,-0.0027684816,-0.0026751254,0.93719065,0.93749756,-0.0748915,-0.076277785
2.1429032258064518,0.9177495,0.9071312,-0.0146937445,-0.01447865,0.05929254,0.058776386,-0.002903619,-0.0028057592,0.9368934,0.93718654,-0.0785486,-0.08000212
2.243041474654378,0.91773903,0.90712017,-0.015380405,-0.0151552055,0.05928083,0.058765598,-0.0030386765,-0.0029363232,0.9365821,0.93686074,-0.082203686,-0.08372434
2.3431797235023044,0.917728,0.90710855,-0.016067067,-0.015831755,0.0592686,0.058754317,-0.0031736484,-0.0030668122,0.9362569,0.9365204,-0.08585667,-0.08744435
2.4433179723502305,0.91771656,0.9070965,-0.016753733,-0.0165083,0.05925585,0.05874257,-0.0033085332,-0.0031972253,0.93591756,0.93616533,-0.08950752,-0.09116209
2.5434562211981566,0.9177046,0.90708387,-0.017440408,-0.017184848,0.059242573,0.058730338,-0.0034433268,-0.0033275587,0.9355644,0.93579566,-0.09315607,-0.09487744
2.643594470046083,0.9176922,0.9070709,-0.018127088,-0.017861389,0.05922877,0.058717616,-0.0035780245,-0.0034578098,0.93519723,0.93541133,-0.096802264,-0.098590285
2.7437327188940093,0.91767925,0.9070573,-0.018813774,-0.018537931,0.059214465,0.05870442,-0.0037126252,-0.0035879747,0.93481624,0.9350125,-0.10044606,-0.1023006
2.8438709677419354,0.9176659,0.9070432,-0.019500464,-0.019214466,0.05919963,0.05869075,-0.0038471231,-0.0037180511,0.93442136,0.9345991,-0.104087315,-0.106008224
2.944009216589862,0.917652,0.9070286,-0.020187158,-0.019890996,0.059184283,0.058676604,-0.003981517,-0.0038480368,0.9340126,0.93417126,-0.10772602,-0.10971316
3.044147465437788,0.91763765,0.90701354,-0.02087386,-0.020567525,0.059168413,0.058661975,-0.004115804,-0.0039779283,0.93359005,0.9337288,-0.11136196,-0.11341516
3.1442857142857146,0.9176228,0.9069979,-0.02156057,-0.021244053,0.059152044,0.058646876,-0.004249978,-0.004107723,0.93315375,0.933272,-0.11499514,-0.11711424
3.2444239631336407,0.9176075,0.9069818,-0.02224728,-0.02192057,0.059135154,0.0586313,-0.0043840376,-0.004237416,0.93270373,0.9328008,-0.11862554,-0.12081037
3.344562211981567,0.9175917,0.9069652,-0.022934005,-0.02259709,0.059117757,0.05861526,-0.00451798,-0.004367009,0.93223995,0.9323152,-0.122252956,-0.12450333
3.4447004608294933,0.9175754,0.9069481,-0.023620736,-0.023273608,0.059099846,0.058598746,-0.0046518017,-0.004496496,0.9317626,0.93181527,-0.12587738,-0.12819313
3.5448387096774194,0.91755867,0.90693045,-0.024307469,-0.023950115,0.059081424,0.058581762,-0.004785499,-0.0046258746,0.93127155,0.931301,-0.12949869,-0.13187963
3.644976958525346,0.91754144,0.9069124,-0.024994213,-0.024626622,0.05906251,0.058564316,-0.0049190694,-0.004755144,0.93076694,0.93077254,-0.13311681,-0.13556275
3.745115207373272,0.91752374,0.90689373,-0.025680967,-0.025303125,0.059043087,0.0585464,-0.0050525106,-0.0048843,0.93024874,0.9302297,-0.13673173,-0.13924243
3.845253456221198,0.91750556,0.90687466,-0.026367728,-0.025979623,0.059023157,0.058528014,-0.0051858174,-0.0050133397,0.92971706,0.9296728,-0.14034334,-0.14291859
3.9453917050691247,0.91748685,0.906855,-0.027054496,-0.02665612,0.059002735,0.058509175,-0.00531899,-0.005142262,0.92917186,0.9291017,-0.14395157,-0.14659114
4.045529953917051,0.9174677,0.9068349,-0.02774127,-0.027332608,0.058981806,0.058489867,-0.005452024,-0.005271065,0.92861325,0.92851645,-0.14755623,-0.15025993
4.145668202764977,0.91744804,0.9068142,-0.02842805,-0.02800909,0.058960386,0.0584701,-0.005584916,-0.005399745,0.9280412,0.9279171,-0.15115736,-0.15392491
4.2458064516129035,0.91742796,0.90679306,-0.029114846,-0.028685575,0.058938473,0.058449883,-0.005717664,-0.005528298,0.92745584,0.9273038,-0.15475488,-0.15758605
4.34594470046083,0.9174073,0.90677136,-0.029801648,-0.029362049,0.05891605,0.058429208,-0.005850265,-0.0056567257,0.9268571,0.92667645,-0.15834872,-0.16124323
4.446082949308756,0.9173863,0.9067493,-0.030488461,-0.030038524,0.05889316,0.05840807,-0.0059827166,-0.0057850224,0.9262451,0.9260351,-0.16193883,-0.16489646
4.546221198156682,0.91736466,0.9067266,-0.031175278,-0.030714989,0.058869768,0.05838649,-0.0061150184,-0.005913189,0.92561984,0.9253799,-0.16552499,-0.16854545
4.646359447004609,0.9173426,0.9067034,-0.03186211,-0.03139145,0.058845885,0.05836445,-0.006247162,-0.006041219,0.9249815,0.9247108,-0.16910727,-0.17219028
4.7464976958525344,0.9173201,0.90667975,-0.03254895,-0.03206791,0.05882153,0.058341958,-0.006379148,-0.0061691124,0.9243298,0.92402786,-0.17268564,-0.17583092
4.846635944700461,0.917297,0.90665555,-0.0332358,-0.032744363,0.058796678,0.058319025,-0.0065109776,-0.0062968694,0.9236651,0.92333114,-0.17625993,-0.17946717
4.9467741935483875,0.9172735,0.90663093,-0.03392266,-0.03342081,0.058771346,0.058295637,-0.006642643,-0.006424485,0.9229873,0.92262065,-0.17983009,-0.18309899
5.046912442396313,0.9172495,0.9066057,-0.034609526,-0.034097247,0.05874555,0.05827181,-0.0067741433,-0.0065519577,0.92229646,0.9218965,-0.18339603,-0.18672626
5.14705069124424,0.91722506,0.9065801,-0.035296407,-0.034773685,0.05871926,0.058247536,-0.0069054775,-0.0066792862,0.9215927,0.92115873,-0.18695769,-0.190349
5.247188940092166,0.9172001,0.90655386,-0.035983298,-0.035450116,0.05869249,0.058222823,-0.0070366394,-0.006806465,0.92087597,0.9204073,-0.19051519,-0.19396715
5.347327188940092,0.91717464,0.9065271,-0.0366702,-0.036126543,0.05866526,0.058197662,-0.0071676327,-0.0069334977,0.9201463,0.9196423,-0.19406816,-0.19758049
5.4474654377880185,0.91714877,0.9065,-0.037357118,-0.036802966,0.058637545,0.05817207,-0.007298448,-0.007060378,0.9194038,0.91886383,-0.19761671,-0.20118907
5.547603686635945,0.9171223,0.90647227,-0.03804404,-0.03747938,0.058609366,0.058146033,-0.00742909,-0.007187106,0.9186484,0.9180718,-0.20116076,-0.20479274
5.647741935483871,0.9170954,0.9064441,-0.038730983,-0.038155794,0.058580726,0.058119565,-0.0075595556,-0.0073136827,0.9178804,0.91726655,-0.20470025,-0.20839149
5.747880184331797,0.917068,0.9064153,-0.039417922,-0.03883219,0.05855161,0.058092665,-0.0076898364,-0.0074400995,0.9170996,0.91644776,-0.2082351,-0.21198523
5.848018433179724,0.9170402,0.90638614,-0.04010488,-0.039508592,0.05852204,0.058065332,-0.007819934,-0.007566359,0.9163061,0.9156156,-0.2117653,-0.21557398
5.94815668202765,0.9170118,0.90635633,-0.040791858,-0.04018499,0.058491994,0.058037564,-0.007949852,-0.007692462,0.9154999,0.9147703,-0.21529067,-0.21915746
6.048294930875576,0.916983,0.9063262,-0.04147884,-0.040861376,0.0584615,0.05800938,-0.008079578,-0.007818399,0.9146812,0.9139117,-0.21881121,-0.22273575
6.148433179723503,0.9169537,0.9062954,-0.04216584,-0.041537758,0.058430534,0.05798075,-0.008209115,-0.007944172,0.91384995,0.9130399,-0.22232695,-0.22630876
6.248571428571429,0.9169239,0.9062642,-0.04285285,-0.042214133,0.05839912,0.057951704,-0.0083384635,-0.008069784,0.9130062,0.91215503,-0.22583772,-0.22987646
6.348709677419355,0.9168936,0.90623254,-0.04353987,-0.0428905,0.058367252,0.057922237,-0.0084676165,-0.008195225,0.91214997,0.91125697,-0.2293435,-0.2334387
6.448847926267281,0.9168628,0.90620023,-0.044226907,-0.043566868,0.058334935,0.057892337,-0.008596575,-0.008320499,0.91128135,0.910346,-0.23284428,-0.23699543
6.548986175115208,0.91683155,0.9061675,-0.04491395,-0.04424322,0.058302157,0.05786202,-0.00872534,-0.008445604,0.9104003,0.90942186,-0.2363399,-0.24054667
6.6491244239631335,0.9167998,0.90613425,-0.045601014,-0.044919573,0.058268934,0.057831272,-0.008853902,-0.008570537,0.90950704,0.908485,-0.23983034,-0.24409224
6.74926267281106,0.9167676,0.9061005,-0.046288088,-0.045595914,0.05823527,0.057800125,-0.008982265,-0.008695297,0.9086014,0.90753514,-0.24331558,-0.2476321
6.849400921658987,0.9167349,0.90606624,-0.04697518,-0.046272255,0.058201157,0.05776856,-0.009110423,-0.00881988,0.9076836,0.90657246,-0.2467956,-0.25116628
6.949539170506912,0.9167016,0.9060314,-0.04766228,-0.04694859,0.0581666,0.057736576,-0.009238385,-0.008944293,0.90675354,0.905597,-0.25027025,-0.25469464
7.049677419354839,0.9166679,0.9059961,-0.048349395,-0.047624916,0.058131598,0.05770417,-0.009366132,-0.009068523,0.9058114,0.90460885,-0.25373954,-0.25821716
7.149815668202765,0.9166338,0.90596044,-0.04903653,-0.04830123,0.058096163,0.05767136,-0.009493675,-0.009192572,0.9048571,0.90360785,-0.2572034,-0.2617337
7.249953917050692,0.91659904,0.9059241,-0.049723674,-0.048977546,0.058060292,0.057638135,-0.009621013,-0.009316445,0.90389085,0.9025944,-0.26066172,-0.26524425
7.350092165898618,0.9165639,0.9058873,-0.050410837,-0.049653854,0.058023974,0.057604507,-0.009748133,-0.0094401315,0.9029125,0.9015683,-0.26411453,-0.26874873
7.450230414746544,0.9165283,0.90585005,-0.05109801,-0.050330155,0.05798724,0.057570476,-0.009875044,-0.00956364,0.9019222,0.9005297,-0.2675618,-0.27224714
7.550368663594471,0.91649216,0.90581226,-0.0517852,-0.051006448,0.057950065,0.05753602,-0.010001736,-0.009686956,0.90092,0.8994785,-0.2710034,-0.2757393
7.650506912442396,0.9164555,0.90577394,-0.052472405,-0.051682733,0.057912454,0.057501175,-0.01012822,-0.009810092,0.899906,0.898415,-0.27443933,-0.27922535
7.750645161290323,0.9164184,0.90573514,-0.053159628,-0.052359015,0.05787442,0.05746592,-0.010254479,-0.009933036,0.8988801,0.8973391,-0.27786943,-0.28270498
7.850783410138249,0.91638076,0.9056958,-0.05384686,-0.053035285,0.05783596,0.057430267,-0.010380523,-0.010055795,0.89784235,0.8962508,-0.28129396,-0.2861785
7.950921658986175,0.9163426,0.905656,-0.05453411,-0.053711552,0.057797078,0.05739421,-0.010506345,-0.01017836,0.896793,0.89515036,-0.2847124,-0.28964537
8.051059907834102,0.91630405,0.9056157,-0.055221375,-0.054387808,0.05775777,0.057357755,-0.010631945,-0.010300735,0.8957318,0.89403754,-0.28812507,-0.29310587
8.151198156682026,0.916265,0.90557486,-0.05590866,-0.055064064,0.057718042,0.057320893,-0.010757324,-0.010422915,0.89465916,0.89291275,-0.2915319,-0.29655996
8.251336405529953,0.91622543,0.90553355,-0.056595962,-0.05574031,0.05767789,0.057283655,-0.010882472,-0.010544902,0.8935748,0.8917757,-0.29493257,-0.30000728
8.35147465437788,0.9161854,0.9054917,-0.05728327,-0.05641655,0.057637323,0.057246014,-0.011007395,-0.010666691,0.8924789,0.8906266,-0.29832727,-0.30344808
8.451612903225806,0.91614485,0.90544933,-0.057970606,-0.05709278,0.05759634,0.05720797,-0.011132096,-0.010788286,0.89137137,0.8894655,-0.30171588,-0.3068822
8.551751152073733,0.9161037,0.9054064,-0.05865795,-0.057769004,0.057554953,0.05716954,-0.011256559,-0.010909681,0.8902525,0.88829243,-0.3050984,-0.31030956
8.65188940092166,0.91606224,0.9053631,-0.059345312,-0.058445215,0.057513148,0.057130724,-0.011380795,-0.011030876,0.8891221,0.88710743,-0.3084748,-0.3137302
8.752027649769584,0.9160202,0.90531933,-0.060032688,-0.059121422,0.057470925,0.057091516,-0.011504795,-0.011151869,0.88798046,0.88591063,-0.31184492,-0.3171439
8.85216589861751,0.91597766,0.90527487,-0.06072009,-0.05979763,0.057428308,0.05705192,-0.011628568,-0.011272661,0.8868274,0.884702,-0.3152088,-0.32055083
8.952304147465437,0.9159347,0.90523005,-0.061407503,-0.060473822,0.057385266,0.057011932,-0.0117521025,-0.011393255,0.885663,0.8834816,-0.3185663,-0.32395074
9.052442396313364,0.9158912,0.9051847,-0.06209493,-0.06115001,0.05734182,0.05697155,-0.011875397,-0.011513634,0.88448733,0.8822495,-0.3219175,-0.32734364
9.15258064516129,0.9158471,0.90513873,-0.06278238,-0.06182619,0.057297982,0.056930803,-0.011998452,-0.011633808,0.88330054,0.88100576,-0.3252623,-0.33072954
9.252718894009217,0.91580266,0.90509236,-0.06346985,-0.06250237,0.05725373,0.056889664,-0.012121273,-0.011753781,0.8821026,0.8797505,-0.32860056,-0.33410823
9.352857142857141,0.91575766,0.9050455,-0.06415732,-0.063178524,0.057209093,0.056848142,-0.01224385,-0.011873538,0.8808934,0.8784836,-0.3319325,-0.33747992
9.452995391705068,0.91571224,0.9049981,-0.064844824,-0.06385469,0.057164047,0.056806237,-0.012366183,-0.01199309,0.87967324,0.87720525,-0.33525786,-0.34084436
9.553133640552995,0.9156662,0.90495014,-0.06553234,-0.064530835,0.057118606,0.05676396,-0.012488276,-0.012112426,0.87844205,0.8759155,-0.33857656,-0.34420156
9.653271889400921,0.91561973,0.90490174,-0.06621988,-0.06520698,0.057072766,0.05672129,-0.012610123,-0.012231553,0.8771998,0.87461436,-0.34188864,-0.34755147
9.753410138248848,0.91557276,0.90485287,-0.066907436,-0.06588311,0.057026535,0.056678265,-0.012731719,-0.012350466,0.87594664,0.87330186,-0.34519413,-0.35089397
9.853548387096774,0.9155253,0.90480345,-0.067595005,-0.06655924,0.056979917,0.05663485,-0.012853074,-0.012469165,0.8746826,0.8719781,-0.3484928,-0.35422906
9.9536866359447,0.9154773,0.90475345,-0.06828259,-0.06723536,0.05693289,0.056591067,-0.01297418,-0.012587649,0.87340766,0.8706431,-0.35178483,-0.35755685
10.053824884792625,0.9154288,0.904703,-0.068970196,-0.06791147,0.056885503,0.056546904,-0.0130950315,-0.012705915,0.87212205,0.869297,-0.35507005,-0.360877
10.153963133640552,0.91537994,0.9046521,-0.06965782,-0.06858757,0.056837708,0.056502372,-0.013215633,-0.01282396,0.8708255,0.8679398,-0.3583483,-0.3641897
10.254101382488479,0.91533047,0.9046007,-0.07034546,-0.06926367,0.056789532,0.056457467,-0.013335981,-0.012941785,0.86951816,0.8665714,-0.36161977,-0.3674948
10.354239631336405,0.9152805,0.9045487,-0.07103312,-0.06993975,0.05674097,0.056412198,-0.013456071,-0.013059385,0.8682003,0.86519206,-0.36488432,-0.37079227
10.454377880184332,0.9152301,0.90449625,-0.07172081,-0.070615835,0.056692027,0.056366555,-0.013575908,-0.013176767,0.8668718,0.86380184,-0.36814192,-0.3740821
10.554516129032258,0.91517913,0.90444326,-0.072408505,-0.07129191,0.056642696,0.056320544,-0.013695491,-0.013293924,0.8655326,0.86240065,-0.3713925,-0.3773642
10.654654377880183,0.9151277,0.9043898,-0.07309622,-0.07196797,0.056593,0.05627417,-0.013814814,-0.013410859,0.8641829,0.86098856,-0.374636,-0.38063848
10.75479262672811,0.9150758,0.9043358,-0.07378396,-0.072644025,0.05654291,0.05622743,-0.0139338765,-0.013527563,0.86282265,0.8595658,-0.3778724,-0.38390502
10.854930875576036,0.9150233,0.9042813,-0.0744717,-0.07332006,0.05649245,0.056180317,-0.014052672,-0.013644036,0.8614519,0.8581322,-0.38110164,-0.3871636
10.955069124423963,0.9149704,0.9042263,-0.075159475,-0.0739961,0.056441616,0.056132857,-0.014171215,-0.013760289,0.8600709,0.856688,-0.38432375,-0.39041436
11.05520737327189,0.91491693,0.9041708,-0.07584727,-0.074672125,0.05639041,0.056085028,-0.014289493,-0.013876308,0.8586794,0.8552332,-0.38753858,-0.39365712
11.155345622119816,0.914863,0.9041148,-0.07653508,-0.07534815,0.05633884,0.056036837,-0.014407504,-0.013992101,0.8572776,0.8537678,-0.39074618,-0.39689198
11.25548387096774,0.9148085,0.9040582,-0.077222906,-0.07602417,0.056286886,0.05598829,-0.014525251,-0.014107654,0.8558655,0.8522918,-0.39394647,-0.4001187
11.355622119815667,0.9147536,0.90400124,-0.07791075,-0.076700166,0.05623457,0.055939384,-0.0146427285,-0.014222973,0.8544432,0.85080546,-0.3971394,-0.4033375
11.455760368663594,0.9146982,0.9039437,-0.07859862,-0.077376164,0.056181885,0.055890128,-0.014759938,-0.014338062,0.85301065,0.8493086,-0.400325,-0.40654802
11.55589861751152,0.9146422,0.9038856,-0.0792865,-0.07805214,0.056128833,0.055840503,-0.014876876,-0.014452907,0.8515679,0.84780145,-0.40350306,-0.40975046
11.656036866359447,0.91458577,0.9038271,-0.079974405,-0.07872812,0.056075417,0.05579053,-0.014993543,-0.014567517,0.8501151,0.846284,-0.40667373,-0.41294467
11.756175115207373,0.9145288,0.903768,-0.08066232,-0.079404086,0.056021646,0.0557402,-0.0151099395,-0.0146818925,0.8486522,0.84475625,-0.4098369,-0.4161306
11.8563133640553,0.9144714,0.90370846,-0.081350274,-0.080080055,0.055967502,0.05568952,-0.0152260605,-0.014796022,0.8471793,0.84321845,-0.41299257,-0.41930836
11.956451612903225,0.9144134,0.9036484,-0.08203824,-0.080756,0.05591301,0.055638492,-0.015341904,-0.014909909,0.84569645,0.8416704,-0.41614062,-0.42247778
12.056589861751151,0.9143549,0.9035878,-0.08272621,-0.08143195,0.055858154,0.05558711,-0.015457477,-0.0150235575,0.84420365,0.8401123,-0.41928095,-0.4256388
12.156728110599078,0.9142959,0.90352666,-0.08341421,-0.08210788,0.055802934,0.05553538,-0.015572766,-0.015136957,0.842701,0.8385442,-0.42241368,-0.4287914
12.256866359447004,0.9142365,0.90346503,-0.08410223,-0.082783796,0.055747375,0.055483308,-0.015687782,-0.015250111,0.84118843,0.83696604,-0.42553866,-0.43193558
12.35700460829493,0.9141765,0.903403,-0.08479028,-0.08345973,0.05569146,0.055430885,-0.015802516,-0.015363023,0.8396661,0.835378,-0.42865598,-0.43507126
12.457142857142857,0.914116,0.9033403,-0.08547833,-0.08413562,0.05563518,0.055378117,-0.015916966,-0.015475677,0.8381341,0.83378017,-0.4317654,-0.4381984
