freq_GHz,S11_Re_true,S11_Re_decoded,S11_Im_true,S11_Im_decoded,S21_Re_true,S21_Re_decoded,S21_Im_true,S21_Im_decoded,S22_Re_true,S22_Re_decoded,S22_Im_true,S22_Im_decoded
0.04,0.97775286,0.9783582,-0.00034366053,-0.00034486907,0.013487821,0.012882104,-3.3315264e-05,-3.1908403e-05,0.9864434,0.9870522,-0.0045471787,-0.004556329
0.14013824884792628,0.97775215,0.9783575,-0.0012028116,-0.0012070416,0.013486962,0.012881277,-0.00011659652,-0.000111672736,0.9863262,0.98693454,-0.015914183,-0.015946202
0.24027649769585255,0.9777506,0.9783559,-0.0020619617,-0.002069213,0.013485149,0.012879534,-0.00019985478,-0.00019141487,0.98607874,0.98668617,-0.02727805,-0.027332924
0.3404147465437788,0.9777482,0.9783535,-0.00292111,-0.002931383,0.013482381,0.012876872,-0.00028307363,-0.00027111892,0.98570126,0.9863073,-0.03863654,-0.038714238
0.44055299539170506,0.97774506,0.97835034,-0.003780256,-0.0037935502,0.013478661,0.012873295,-0.00036623672,-0.00035076914,0.98519385,0.985798,-0.04998741,-0.05008789
0.5406912442396314,0.977741,0.9783463,-0.0046393992,-0.0046557146,0.013473989,0.012868802,-0.00044932766,-0.00043034967,0.9845567,0.9851585,-0.061328437,-0.061451655
0.6408294930875577,0.97773623,0.97834146,-0.005498539,-0.0055178762,0.013468369,0.012863396,-0.0005323302,-0.0005098448,0.98379004,0.984389,-0.0726574,-0.07280329
0.7409677419354839,0.9777306,0.97833574,-0.0063576736,-0.0063800323,0.0134618,0.0128570795,-0.000615228,-0.0005892388,0.9828941,0.9834899,-0.08397207,-0.084140554
0.8411059907834102,0.97772413,0.9783293,-0.0072168037,-0.0072421837,0.013454288,0.012849855,-0.0006980051,-0.0006685162,0.98186946,0.9824614,-0.09527024,-0.095461234
0.9412442396313365,0.97771686,0.9783219,-0.008075928,-0.00810433,0.013445834,0.012841725,-0.0007806452,-0.0007476613,0.98071635,0.98130405,-0.10654973,-0.106763154
1.0413824884792628,0.9777088,0.97831386,-0.008935046,-0.00896647,0.013436442,0.012832694,-0.00086313236,-0.0008266587,0.9794352,0.98001826,-0.11780836,-0.11804406
1.141520737327189,0.97769994,0.97830486,-0.009794157,-0.009828602,0.013426115,0.012822763,-0.00094545074,-0.0009054931,0.9780267,0.97860456,-0.1290439,-0.12930182
1.2416589861751153,0.9776902,0.9782951,-0.01065326,-0.010690728,0.013414857,0.012811936,-0.0010275844,-0.0009841492,0.97649115,0.9770634,-0.14025429,-0.14053425
1.3417972350230416,0.97767967,0.9782845,-0.011512354,-0.011552844,0.013402673,0.01280022,-0.0011095179,-0.0010626119,0.9748294,0.9753955,-0.15143731,-0.15173918
1.4419354838709677,0.9776684,0.97827303,-0.0123714395,-0.012414952,0.013389567,0.012787618,-0.0011912354,-0.001140866,0.9730419,0.9736015,-0.16259089,-0.16291451
1.542073732718894,0.97765625,0.9782608,-0.013230517,-0.013277051,0.013375545,0.012774135,-0.0012727219,-0.001218897,0.9711294,0.9716821,-0.1737129,-0.17405814
1.6422119815668204,0.97764325,0.97824776,-0.014089581,-0.014139138,0.013360612,0.012759775,-0.0013539616,-0.0012966899,0.9690927,0.96963793,-0.18480127,-0.18516791
1.7423502304147467,0.9776294,0.9782338,-0.014948636,-0.015001216,0.013344774,0.012744547,-0.00143494,-0.0013742303,0.9669325,0.96746993,-0.19585393,-0.19624183
1.842488479262673,0.9776149,0.97821915,-0.015807677,-0.01586328,0.013328037,0.012728453,-0.0015156418,-0.0014515036,0.96464974,0.96517885,-0.20686889,-0.2072778
1.942626728110599,0.9775995,0.9782036,-0.016666709,-0.016725333,0.013310408,0.012711503,-0.0015960522,-0.0015284956,0.96224517,0.96276563,-0.21784405,-0.21827382
2.0427649769585257,0.9775832,0.9781872,-0.017525727,-0.017587375,0.0132918935,0.0126937,-0.0016761569,-0.0016051924,0.95971984,0.9602311,-0.22877747,-0.22922787
2.1429032258064518,0.9775661,0.97817004,-0.01838473,-0.018449401,0.013272498,0.012675052,-0.0017559415,-0.0016815802,0.95707464,0.9575764,-0.23966724,-0.24013805
2.243041474654378,0.9775483,0.9781521,-0.019243719,-0.019311413,0.013252231,0.012655567,-0.0018353916,-0.0017576449,0.95431054,0.95480233,-0.25051135,-0.25100234
2.3431797235023044,0.97752964,0.97813326,-0.020102693,-0.020173412,0.0132311005,0.0126352515,-0.0019144935,-0.0018333734,0.9514287,0.9519102,-0.26130792,-0.26181883
2.4433179723502305,0.97751015,0.9781136,-0.02096165,-0.021035392,0.013209115,0.012614114,-0.001993233,-0.0019087525,0.94843,0.94890076,-0.2720551,-0.2725857
2.5434562211981566,0.9774898,0.9780931,-0.021820594,-0.021897359,0.01318628,0.012592161,-0.0020715971,-0.0019837688,0.94531584,0.94577545,-0.28275102,-0.283301
2.643594470046083,0.9774687,0.9780718,-0.022679519,-0.022759309,0.013162606,0.012569401,-0.0021495724,-0.0020584099,0.94208705,0.9425352,-0.29339385,-0.29396302
2.7437327188940093,0.9774468,0.97804976,-0.023538427,-0.02362124,0.013138101,0.012545845,-0.0022271457,-0.0021326626,0.9387452,0.93918145,-0.30398184,-0.30456987
2.8438709677419354,0.977424,0.9780268,-0.024397315,-0.024483155,0.013112776,0.012521499,-0.002304304,-0.002206515,0.93529123,0.93571526,-0.31451327,-0.3151199
2.944009216589862,0.9774005,0.9780031,-0.025256187,-0.02534505,0.013086638,0.012496373,-0.0023810354,-0.0022799552,0.93172646,0.9321379,-0.32498634,-0.32561126
3.044147465437788,0.97737616,0.9779785,-0.026115036,-0.026206926,0.013059697,0.012470476,-0.002457327,-0.0023529714,0.92805225,0.92845076,-0.33539945,-0.33604237
3.1442857142857146,0.9773509,0.97795314,-0.026973868,-0.027068779,0.013031962,0.012443817,-0.0025331667,-0.002425551,0.9242699,0.9246552,-0.34575093,-0.34641153
3.2444239631336407,0.97732496,0.9779269,-0.027832678,-0.027930617,0.013003444,0.012416407,-0.0026085433,-0.0024976837,0.92038083,0.9207525,-0.35603923,-0.3567172
3.344562211981567,0.9772981,0.97789985,-0.028691467,-0.028792432,0.012974154,0.012388254,-0.0026834442,-0.0025693574,0.91638637,0.9167441,-0.36626267,-0.36695772
3.4447004608294933,0.9772705,0.9778721,-0.029550234,-0.029654225,0.012944101,0.012359369,-0.0027578594,-0.0026405626,0.91228795,0.91263145,-0.37641978,-0.37713158
3.5448387096774194,0.97724205,0.9778434,-0.030408978,-0.030515995,0.012913296,0.012329763,-0.0028317776,-0.0027112877,0.908087,0.908416,-0.38650912,-0.38723728
3.644976958525346,0.97721285,0.97781396,-0.031267703,-0.031377744,0.01288175,0.012299445,-0.0029051874,-0.002781523,0.9037851,0.9040992,-0.39652917,-0.3972734
3.745115207373272,0.97718275,0.9777836,-0.032126397,-0.032239467,0.012849474,0.012268428,-0.0029780795,-0.0028512585,0.89938354,0.8996826,-0.4064785,-0.40723845
3.845253456221198,0.9771519,0.97775245,-0.03298507,-0.033101164,0.0128164785,0.012236719,-0.0030504435,-0.0029204844,0.89488405,0.8951677,-0.4163558,-0.41713113
3.9453917050691247,0.97712016,0.9777205,-0.033843722,-0.033962842,0.012782777,0.012204333,-0.0031222687,-0.0029891906,0.89028805,0.89055604,-0.42615965,-0.42695
4.045529953917051,0.9770876,0.9776878,-0.034702342,-0.03482449,0.0127483765,0.012171279,-0.0031935468,-0.0030573688,0.88559717,0.88584924,-0.43588883,-0.43669385
4.145668202764977,0.97705436,0.97765416,-0.03556094,-0.035686117,0.012713293,0.012137568,-0.003264268,-0.00312501,0.88081294,0.88104886,-0.4455421,-0.44636142
4.2458064516129035,0.9770202,0.97761977,-0.036419507,-0.036547713,0.012677535,0.012103211,-0.003334423,-0.0031921053,0.87593704,0.87615657,-0.45511818,-0.45595142
4.34594470046083,0.9769853,0.97758454,-0.03727805,-0.037409283,0.012641117,0.012068221,-0.003404004,-0.0032586465,0.870971,0.8711739,-0.46461594,-0.46546277
4.446082949308756,0.9769495,0.97754854,-0.038136564,-0.038270824,0.01260405,0.01203261,-0.0034730025,-0.003324626,0.8659165,0.8661026,-0.4740343,-0.47489426
4.546221198156682,0.9769129,0.97751164,-0.038995054,-0.03913234,0.012566347,0.0119963875,-0.0035414104,-0.0033900363,0.8607752,0.86094415,-0.48337203,-0.48424482
4.646359447004609,0.97687554,0.977474,-0.03985351,-0.039993826,0.012528018,0.011959567,-0.00360922,-0.0034548696,0.85554886,0.85570055,-0.49262822,-0.49351346
4.7464976958525344,0.9768374,0.9774355,-0.040711936,-0.040855285,0.012489077,0.011922159,-0.0036764236,-0.0035191183,0.8502389,0.85037315,-0.50180185,-0.50269914
4.846635944700461,0.97679836,0.9773962,-0.041570336,-0.04171671,0.012449535,0.011884177,-0.0037430145,-0.0035827768,0.84484726,0.8449639,-0.5108919,-0.51180077
4.9467741935483875,0.97675854,0.9773561,-0.042428702,-0.04257811,0.012409406,0.0118456315,-0.0038089862,-0.003645838,0.8393755,0.8394744,-0.51989746,-0.52081764
5.046912442396313,0.9767179,0.97731507,-0.04328704,-0.04343947,0.012368703,0.011806538,-0.0038743317,-0.0037082955,0.83382547,0.83390635,-0.52881765,-0.52974874
5.14705069124424,0.9766765,0.97727334,-0.044145342,-0.044300806,0.012327437,0.011766904,-0.0039390456,-0.003770144,0.8281987,0.8282615,-0.5376517,-0.5385933
5.247188940092166,0.97663426,0.9772307,-0.04500361,-0.045162104,0.012285621,0.0117267445,-0.0040031206,-0.0038313768,0.822497,0.8225416,-0.54639876,-0.5473504
5.347327188940092,0.97659117,0.97718734,-0.04586185,-0.046023376,0.012243268,0.011686072,-0.004066552,-0.0038919896,0.8167222,0.8167484,-0.55505806,-0.5560194
5.4474654377880185,0.9765473,0.9771431,-0.046720058,-0.04688461,0.01220039,0.011644896,-0.0041293353,-0.0039519775,0.8108759,0.8108836,-0.5636289,-0.5645996
5.547603686635945,0.9765026,0.97709805,-0.04757823,-0.047745813,0.012157001,0.0116032325,-0.004191464,-0.004011335,0.80495983,0.8049489,-0.57211065,-0.5730902
5.647741935483871,0.9764571,0.9770522,-0.04843637,-0.048606984,0.012113112,0.01156109,-0.0042529344,-0.004070058,0.7989759,0.7989462,-0.5805026,-0.5814907
5.747880184331797,0.9764108,0.9770055,-0.04929447,-0.049468115,0.012068737,0.011518485,-0.0043137427,-0.0041281423,0.7929256,0.79287714,-0.58880424,-0.5898005
5.848018433179724,0.9763638,0.9769581,-0.050152536,-0.050329212,0.012023889,0.011475427,-0.004373884,-0.004185585,0.7868108,0.78674346,-0.59701496,-0.5980189
5.94815668202765,0.9763158,0.9769097,-0.05101057,-0.051190276,0.011978581,0.01143193,-0.0044333534,-0.0042423806,0.7806333,0.78054696,-0.60513425,-0.60614556
6.048294930875576,0.97626704,0.9768606,-0.051868565,-0.052051302,0.011932824,0.011388005,-0.0044921497,-0.0042985273,0.7743947,0.77428937,-0.6131617,-0.61417985
6.148433179723503,0.9762175,0.9768107,-0.052726526,-0.052912295,0.011886633,0.011343664,-0.0045502684,-0.004354021,0.7680968,0.7679724,-0.62109685,-0.6221216
6.248571428571429,0.9761672,0.9767599,-0.05358444,-0.05377324,0.0118400175,0.011298919,-0.004607707,-0.0044088606,0.7617414,0.7615979,-0.6289392,-0.62997013
6.348709677419355,0.97611606,0.97670835,-0.054442324,-0.054634158,0.011792993,0.011253785,-0.0046644625,-0.004463042,0.7553301,0.75516737,-0.6366886,-0.63772523
6.448847926267281,0.976064,0.9766559,-0.05530017,-0.05549503,0.011745573,0.011208273,-0.0047205323,-0.0045165634,0.74886465,0.7486828,-0.64434445,-0.6453866
6.548986175115208,0.9760113,0.97660273,-0.056157973,-0.056355868,0.011697766,0.011162393,-0.0047759153,-0.0045694234,0.7423468,0.7421457,-0.6519067,-0.6529538
6.6491244239631335,0.9759577,0.97654873,-0.05701574,-0.057216667,0.011649588,0.011116158,-0.004830608,-0.004621619,0.73577833,0.735558,-0.6593751,-0.66042674
6.74926267281106,0.9759033,0.9764939,-0.057873465,-0.05807742,0.011601049,0.011069581,-0.004884611,-0.00467315,0.7291608,0.7289212,-0.6667493,-0.66780525
6.849400921658987,0.97584814,0.9764382,-0.05873115,-0.05893814,0.011552163,0.011022674,-0.0049379217,-0.004724015,0.72249585,0.72223705,-0.6740292,-0.675089
6.949539170506912,0.97579205,0.9763817,-0.059588794,-0.059798814,0.011502942,0.010975447,-0.0049905386,-0.004774213,0.7157853,0.7155073,-0.68121463,-0.6822779
7.049677419354839,0.97573525,0.97632444,-0.0604464,-0.060659453,0.011453399,0.010927915,-0.0050424617,-0.0048237424,0.70903087,0.7087336,-0.6883055,-0.6893719
7.149815668202765,0.9756776,0.9762664,-0.06130396,-0.061520044,0.011403546,0.010880087,-0.0050936905,-0.004872604,0.7022339,0.7019175,-0.6953018,-0.69637084
7.249953917050692,0.9756192,0.97620744,-0.062161475,-0.062380597,0.011353393,0.010831975,-0.0051442245,-0.004920797,0.69539636,0.6950609,-0.70220333,-0.7032748
7.350092165898618,0.9755599,0.9761477,-0.063018955,-0.06324111,0.011302954,0.010783592,-0.0051940633,-0.004968322,0.6885198,0.6881652,-0.7090102,-0.7100837
7.450230414746544,0.9754999,0.9760872,-0.06387639,-0.06410157,0.011252241,0.010734949,-0.0052432073,-0.0050151777,0.68160576,0.68123215,-0.71572244,-0.7167976
7.550368663594471,0.975439,0.9760258,-0.06473377,-0.06496199,0.011201263,0.010686057,-0.005291657,-0.005061366,0.67465585,0.67426324,-0.7223401,-0.72341657
7.650506912442396,0.9753773,0.9759636,-0.06559112,-0.06582237,0.011150035,0.010636926,-0.0053394125,-0.0051068864,0.66767174,0.6672602,-0.7288633,-0.72994065
7.750645161290323,0.97531486,0.9759006,-0.06644842,-0.066682704,0.011098567,0.010587569,-0.0053864755,-0.0051517407,0.66065496,0.66022456,-0.73529196,-0.73636985
7.850783410138249,0.97525156,0.9758368,-0.06730568,-0.06754299,0.011046872,0.010537996,-0.0054328456,-0.0051959297,0.65360695,0.6531579,-0.74162644,-0.74270463
7.950921658986175,0.9751875,0.9757722,-0.06816288,-0.06840323,0.010994958,0.010488219,-0.005478526,-0.005239455,0.6465295,0.6460617,-0.7478668,-0.7489449
8.051059907834102,0.9751226,0.97570676,-0.06902005,-0.06926343,0.010942839,0.010438247,-0.005523517,-0.0052823178,0.63942385,0.63893753,-0.7540133,-0.75509095
8.151198156682026,0.9750569,0.9756405,-0.06987717,-0.070123576,0.010890526,0.010388092,-0.00556782,-0.005324519,0.6322918,0.63178694,-0.76006615,-0.76114297
8.251336405529953,0.97499037,0.9755734,-0.07073424,-0.070983686,0.010838029,0.010337764,-0.0056114374,-0.0053660613,0.6251346,0.6246114,-0.7660255,-0.7671013
8.35147465437788,0.974923,0.97550553,-0.071591265,-0.071843736,0.010785358,0.010287274,-0.00565437,-0.0054069455,0.6179538,0.6174123,-0.7718918,-0.7729661
8.451612903225806,0.9748549,0.97543687,-0.07244824,-0.07270375,0.010732526,0.010236632,-0.0056966217,-0.0054471763,0.6107508,0.6101912,-0.77766514,-0.7787378
8.551751152073733,0.9747859,0.9753673,-0.07330517,-0.07356371,0.010679542,0.010185847,-0.0057381946,-0.005486754,0.6035272,0.6029496,-0.78334606,-0.7844166
8.65188940092166,0.9747162,0.975297,-0.07416204,-0.07442361,0.010626418,0.010134933,-0.00577909,-0.005525681,0.5962842,0.59568864,-0.7889348,-0.790003
8.752027649769584,0.9746457,0.97522587,-0.075018875,-0.075283475,0.010573161,0.010083894,-0.0058193123,-0.005563962,0.58902335,0.5884101,-0.7944317,-0.7954973
8.85216589861751,0.97457427,0.97515386,-0.075875655,-0.076143295,0.010519784,0.010032745,-0.0058588632,-0.005601598,0.581746,0.5811151,-0.7998373,-0.80089986
8.952304147465437,0.97450215,0.97508115,-0.07673238,-0.07700305,0.010466294,0.009981489,-0.0058977455,-0.0056385915,0.5744535,0.5738051,-0.8051519,-0.80621123
9.052442396313364,0.9744292,0.9750076,-0.07758907,-0.07786276,0.010412705,0.009930143,-0.0059359632,-0.0056749475,0.5671471,0.56648135,-0.81037587,-0.81143165
9.15258064516129,0.9743554,0.97493315,-0.078445695,-0.078722425,0.010359025,0.009878714,-0.0059735198,-0.005710668,0.55982816,0.5591453,-0.81550974,-0.8165617
9.252718894009217,0.97428083,0.974858,-0.07930228,-0.079582036,0.010305261,0.009827207,-0.006010418,-0.005745757,0.55249804,0.5517981,-0.820554,-0.8216019
9.352857142857141,0.97420543,0.97478193,-0.08015881,-0.080441594,0.010251426,0.009775636,-0.006046662,-0.0057802177,0.54515797,0.5444412,-0.8255092,-0.82655275
9.452995391705068,0.97412926,0.9747051,-0.08101528,-0.08130109,0.010197527,0.009724007,-0.0060822554,-0.005814055,0.5378092,0.5370757,-0.8303758,-0.8314147
9.553133640552995,0.97405225,0.97462744,-0.08187171,-0.08216055,0.010143573,0.00967233,-0.0061172014,-0.00584727,0.53045297,0.52970296,-0.8351542,-0.8361882
9.653271889400921,0.9739744,0.974549,-0.08272808,-0.08301996,0.010089576,0.009620614,-0.0061515053,-0.005879869,0.5230905,0.5223241,-0.8398451,-0.84087396
9.753410138248848,0.97389585,0.9744697,-0.0835844,-0.0838793,0.01003554,0.0095688645,-0.00618517,-0.0059118555,0.5157229,0.5149403,-0.8444489,-0.84547246
9.853548387096774,0.9738164,0.9743896,-0.084440656,-0.08473859,0.009981478,0.009517094,-0.0062181996,-0.0059432327,0.5083514,0.50755286,-0.8489665,-0.8499843
9.9536866359447,0.9737361,0.97430867,-0.08529687,-0.08559782,0.009927395,0.009465309,-0.0062506003,-0.0059740064,0.5009771,0.5001627,-0.8533981,-0.85441005
10.053824884792625,0.9736551,0.97422695,-0.08615303,-0.086457014,0.0098733,0.009413514,-0.0062823743,-0.006004179,0.49360126,0.4927712,-0.8577446,-0.8587504
10.153963133640552,0.9735733,0.97414446,-0.087009124,-0.08731613,0.009819203,0.009361722,-0.006313527,-0.0060337563,0.48622483,0.48537934,-0.8620063,-0.8630058
10.254101382488479,0.97349066,0.97406113,-0.087865174,-0.08817521,0.00976511,0.009309938,-0.006344063,-0.0060627423,0.4788489,0.4779882,-0.8661842,-0.86717707
10.354239631336405,0.9734072,0.97397697,-0.088721156,-0.08903422,0.00971103,0.00925817,-0.006373988,-0.006091142,0.47147462,0.4705989,-0.8702786,-0.8712648
10.454377880184332,0.9733229,0.973892,-0.0895771,-0.08989319,0.009656971,0.0092064245,-0.006403305,-0.00611896,0.46410307,0.46321243,-0.87429035,-0.87526953
10.554516129032258,0.9732379,0.9738062,-0.09043298,-0.09075209,0.009602939,0.009154709,-0.00643202,-0.0061462005,0.4567351,0.45582983,-0.8782201,-0.8791921
10.654654377880183,0.973152,0.9737196,-0.0912888,-0.09161094,0.009548941,0.00910303,-0.0064601377,-0.006172869,0.44937176,0.448452,-0.8820685,-0.8830331
10.75479262672811,0.9730653,0.97363216,-0.092144564,-0.09246972,0.009494986,0.009051397,-0.0064876624,-0.006198969,0.44201416,0.4410801,-0.8858361,-0.8867932
10.854930875576036,0.9729779,0.97354394,-0.09300026,-0.09332845,0.00944108,0.008999813,-0.0065146005,-0.006224507,0.434663,0.43371496,-0.88952386,-0.8904731
10.955069124423963,0.9728896,0.97345495,-0.09385591,-0.09418712,0.0093872305,0.008948288,-0.0065409564,-0.006249488,0.42731947,0.42635754,-0.89313227,-0.8940736
11.05520737327189,0.9728005,0.97336507,-0.0947115,-0.09504573,0.009333443,0.008896825,-0.0065667355,-0.0062739165,0.41998434,0.4190088,-0.896662,-0.8975952
11.155345622119816,0.97271055,0.9732744,-0.09556703,-0.09590429,0.009279725,0.008845434,-0.006591942,-0.006297797,0.41265857,0.41166955,-0.900114,-0.9010389
11.25548387096774,0.9726199,0.9731829,-0.0964225,-0.09676278,0.009226085,0.00879412,-0.0066165836,-0.006321136,0.4053429,0.4043407,-0.90348876,-0.9044052
11.355622119815667,0.9725284,0.97309065,-0.09727791,-0.0976212,0.009172523,0.008742886,-0.0066406634,-0.0063439375,0.39803833,0.3970231,-0.90678716,-0.90769494
11.455760368663594,0.9724361,0.97299755,-0.09813326,-0.09847958,0.0091190515,0.00869174,-0.006664187,-0.006366207,0.3907456,0.3897176,-0.9100098,-0.91090876
11.55589861751152,0.97234297,0.9729036,-0.098988555,-0.09933789,0.009065673,0.00864069,-0.006687162,-0.006387951,0.38346556,0.38242498,-0.9131576,-0.91404766
11.656036866359447,0.97224903,0.9728089,-0.099843785,-0.10019614,0.009012395,0.008589736,-0.0067095906,-0.0064091724,0.37619895,0.375146,-0.91623104,-0.91711205
11.756175115207373,0.9721543,0.9727133,-0.10069895,-0.101054326,0.008959223,0.008538889,-0.0067314813,-0.0064298795,0.36894658,0.36788148,-0.91923106,-0.92010283
11.8563133640553,0.9720588,0.972617,-0.10155406,-0.10191245,0.0089061605,0.00848815,-0.0067528374,-0.006450075,0.36170924,0.36063218,-0.92215836,-0.9230208
11.956451612903225,0.9719624,0.9725198,-0.10240911,-0.102770515,0.008853215,0.008437527,-0.006773666,-0.006469766,0.35448757,0.35339877,-0.9250137,-0.92586666
12.056589861751151,0.9718653,0.9724218,-0.10326409,-0.10362851,0.008800391,0.008387025,-0.006793972,-0.006488958,0.3472823,0.34618202,-0.9277979,-0.9286412
12.156728110599078,0.97176737,0.972323,-0.10411901,-0.10448644,0.008747693,0.008336646,-0.006813762,-0.0065076556,0.3400941,0.3389826,-0.93051165,-0.93134534
12.256866359447004,0.9716686,0.97222346,-0.10497386,-0.10534431,0.0086951265,0.008286396,-0.0068330397,-0.0065258644,0.33292374,0.33180112,-0.9331557,-0.93397945
12.35700460829493,0.97156906,0.972123,-0.10582867,-0.10620213,0.008642698,0.008236282,-0.0068518114,-0.006543589,0.32577175,0.32463828,-0.93573093,-0.9365447
